T0DC4 000:011.694   SEGGER J-Link V6.70e Log File
T0DC4 000:011.959   DLL Compiled: Apr 17 2020 17:55:05
T0DC4 000:011.966   Logging started @ 2021-08-19 16:12
T0DC4 000:011.976 JLINK_SetWarnOutHandler(...)
T0DC4 000:011.984 - 0.011ms
T0DC4 000:011.996 JLINK_OpenEx(...)
T0DC4 000:013.411   Firmware: J-Link V9 compiled Dec 13 2019 11:14:50
T0DC4 000:013.682   Decompressing FW timestamp took 141 us
T0DC4 000:019.792   Hardware: V9.70
T0DC4 000:019.822   S/N: 59700618
T0DC4 000:019.832   OEM: SEGGER
T0DC4 000:019.841   Feature(s): RDI, FlashBP, FlashDL, JFlash, GDB
T0DC4 000:020.912   TELNET listener socket opened on port 19021
T0DC4 000:021.136   WEBSRV Starting webserver
T0DC4 000:021.254   WEBSRV Webserver running on local port 19080
T0DC4 000:021.266 - 9.272ms returns "O.K."
T0DC4 000:021.290 JLINK_GetEmuCaps()
T0DC4 000:021.299 - 0.013ms returns 0xB9FF7BBF
T0DC4 000:021.321 JLINK_TIF_GetAvailable(...)
T0DC4 000:021.490 - 0.178ms
T0DC4 000:021.507 JLINK_SetErrorOutHandler(...)
T0DC4 000:021.513 - 0.009ms
T0DC4 000:021.534 JLINK_ExecCommand("ProjectFile = "C:\Users\Stone\Desktop\STM32 code\01_Stand Temp\Project\JLinkSettings.ini"", ...). 
T0DC4 000:031.957 - 10.443ms returns 0x00
T0DC4 000:037.331 JLINK_ExecCommand("Device = STM32F103ZE", ...). 
T0DC4 000:058.274   Device "STM32F103ZE" selected.
T0DC4 000:058.833 - 21.478ms returns 0x00
T0DC4 000:058.854 JLINK_ExecCommand("DisableConnectionTimeout", ...). 
T0DC4 000:058.940 - 0.012ms returns 0x01
T0DC4 000:058.955 JLINK_GetHardwareVersion()
T0DC4 000:058.962 - 0.010ms returns 0x17AE8
T0DC4 000:058.971 JLINK_GetDLLVersion()  returns 67005
T0DC4 000:058.986 JLINK_GetFirmwareString(...)
T0DC4 000:058.992 - 0.009ms
T0DC4 000:079.366 JLINK_GetDLLVersion()  returns 67005
T0DC4 000:079.386 JLINK_GetCompileDateTime()
T0DC4 000:079.393 - 0.010ms
T0DC4 000:085.982 JLINK_GetFirmwareString(...)
T0DC4 000:086.000 - 0.020ms
T0DC4 000:092.522 JLINK_GetHardwareVersion()
T0DC4 000:092.540 - 0.021ms returns 0x17AE8
T0DC4 000:118.918 JLINK_TIF_Select(JLINKARM_TIF_JTAG)
T0DC4 000:119.963 - 1.057ms returns 0x00
T0DC4 000:120.004 JLINK_SetSpeed(10000)
T0DC4 000:120.155 - 0.160ms
T0DC4 000:120.173 JLINK_GetIdData(pIdData)
T0DC4 000:129.075   TotalIRLen = 9, IRPrint = 0x0011
T0DC4 000:135.757   JTAG chain detection found 2 devices:
T0DC4 000:141.827    #0 Id: 0x3BA00477, IRLen: 04, CoreSight JTAG-DP
T0DC4 000:149.296    #1 Id: 0x06414041, IRLen: 05, STM32 Boundary Scan
T0DC4 000:161.965   TotalIRLen = 9, IRPrint = 0x0011
T0DC4 000:168.299   JTAG chain detection found 2 devices:
T0DC4 000:175.147    #0 Id: 0x3BA00477, IRLen: 04, CoreSight JTAG-DP
T0DC4 000:181.552    #1 Id: 0x06414041, IRLen: 05, STM32 Boundary Scan
T0DC4 000:182.563   Old FW that does not support reading DPIDR via DAP jobs
T0DC4 000:190.453   Unknown DP version. Assuming DPv0
T0DC4 000:196.530   Scanning AP map to find all available APs
T0DC4 000:203.034   AP[1]: Stopped AP scan as end of AP map has been reached
T0DC4 000:208.683   AP[0]: AHB-AP (IDR: 0x14770011)
T0DC4 000:214.894   Iterating through AP map to find AHB-AP to use
T0DC4 000:222.149   AP[0]: Core found
T0DC4 000:228.227   AP[0]: AHB-AP ROM base: 0xE00FF000
T0DC4 000:235.038   CPUID register: 0x411FC231. Implementer code: 0x41 (ARM)
T0DC4 000:243.022   Found Cortex-M3 r1p1, Little endian.
T0DC4 000:243.395    -- Max. mem block: 0x00010DD0
T0DC4 000:243.433   CPU_ReadMem(4 bytes @ 0xE000EDF0)
T0DC4 000:244.524   CPU_WriteMem(4 bytes @ 0xE000EDF0)
T0DC4 000:244.755   CPU_ReadMem(4 bytes @ 0xE0002000)
T0DC4 000:252.750   FPUnit: 6 code (BP) slots and 2 literal slots
T0DC4 000:252.795   CPU_ReadMem(4 bytes @ 0xE000EDFC)
T0DC4 000:253.067   CPU_WriteMem(4 bytes @ 0xE000EDFC)
T0DC4 000:253.280   CPU_ReadMem(4 bytes @ 0xE0001000)
T0DC4 000:253.517   CPU_WriteMem(4 bytes @ 0xE0001000)
T0DC4 000:253.743   CPU_ReadMem(4 bytes @ 0xE000ED88)
T0DC4 000:253.973   CPU_WriteMem(4 bytes @ 0xE000ED88)
T0DC4 000:254.183   CPU_ReadMem(4 bytes @ 0xE000ED88)
T0DC4 000:254.416   CPU_WriteMem(4 bytes @ 0xE000ED88)
T0DC4 000:261.815   CoreSight components:
T0DC4 000:268.727   ROMTbl[0] @ E00FF000
T0DC4 000:268.754   CPU_ReadMem(64 bytes @ 0xE00FF000)
T0DC4 000:269.186   CPU_ReadMem(32 bytes @ 0xE000EFE0)
T0DC4 000:275.610   ROMTbl[0][0]: E000E000, CID: B105E00D, PID: 001BB000 SCS
T0DC4 000:275.636   CPU_ReadMem(32 bytes @ 0xE0001FE0)
T0DC4 000:282.167   ROMTbl[0][1]: E0001000, CID: B105E00D, PID: 001BB002 DWT
T0DC4 000:282.205   CPU_ReadMem(32 bytes @ 0xE0002FE0)
T0DC4 000:288.782   ROMTbl[0][2]: E0002000, CID: B105E00D, PID: 000BB003 FPB
T0DC4 000:288.806   CPU_ReadMem(32 bytes @ 0xE0000FE0)
T0DC4 000:295.941   ROMTbl[0][3]: E0000000, CID: B105E00D, PID: 001BB001 ITM
T0DC4 000:295.969   CPU_ReadMem(32 bytes @ 0xE0040FE0)
T0DC4 000:304.009   ROMTbl[0][4]: E0040000, CID: B105900D, PID: 001BB923 TPIU-Lite
T0DC4 000:304.036   CPU_ReadMem(32 bytes @ 0xE0041FE0)
T0DC4 000:312.234   ROMTbl[0][5]: E0041000, CID: B105900D, PID: 101BB924 ETM-M3
T0DC4 000:312.304   pIdData->ScanLen=9
T0DC4 000:312.315   
T0DC4 000:312.321   pIdData->NumDevices=2
T0DC4 000:312.330   
T0DC4 000:312.336   pIdData->aId[0]=0x3BA00477
T0DC4 000:312.345   
T0DC4 000:312.351   pIdData->aIrRead[0]=0
T0DC4 000:312.360   
T0DC4 000:312.366   pIdData->aScanLen[0]=0
T0DC4 000:312.375   
T0DC4 000:312.382   pIdData->aScanRead[0]=0
T0DC4 000:312.391   
T0DC4 000:312.397 - 192.227ms
T0DC4 000:312.419 JLINK_JTAG_GetDeviceID(DeviceIndex = 0)
T0DC4 000:312.426 - 0.010ms returns 0x3BA00477
T0DC4 000:312.437 JLINK_JTAG_GetDeviceInfo(DeviceIndex = 0)
T0DC4 000:312.444 - 0.009ms returns 0x00
T0DC4 000:312.453 JLINK_JTAG_GetDeviceID(DeviceIndex = 1)
T0DC4 000:312.460 - 0.009ms returns 0x6414041
T0DC4 000:312.469 JLINK_JTAG_GetDeviceInfo(DeviceIndex = 1)
T0DC4 000:312.476 - 0.009ms returns 0x00
T0DC4 000:312.526 JLINK_GetDLLVersion()  returns 67005
T0DC4 000:312.540 JLINK_CORE_GetFound()
T0DC4 000:312.546 - 0.010ms returns 0x30000FF
T0DC4 000:312.555 JLINK_GetDebugInfo(0x100 = JLINKARM_ROM_TABLE_ADDR_INDEX)
T0DC4 000:312.566   Value=0xE00FF000
T0DC4 000:312.576 - 0.023ms returns 0x00
T0DC4 000:319.257 JLINK_GetDebugInfo(0x100 = JLINKARM_ROM_TABLE_ADDR_INDEX)
T0DC4 000:319.279   Value=0xE00FF000
T0DC4 000:319.289 - 0.036ms returns 0x00
T0DC4 000:319.299 JLINK_GetDebugInfo(0x101 = JLINKARM_DEBUG_INFO_ETM_ADDR_INDEX)
T0DC4 000:319.305   Value=0xE0041000
T0DC4 000:319.315 - 0.019ms returns 0x00
T0DC4 000:319.324   JLINK_ReadMemEx(0xE0041FD0, 0x0020 Bytes, ..., Flags = 0x02000004)
T0DC4 000:319.366   CPU_ReadMem(32 bytes @ 0xE0041FD0)
T0DC4 000:319.751   Data:  04 00 00 00 00 00 00 00 00 00 00 00 00 00 00 00 ...
T0DC4 000:319.765 - 0.445ms returns 0x20
T0DC4 000:319.778 JLINK_GetDebugInfo(0x102 = JLINKARM_DEBUG_INFO_MTB_ADDR_INDEX)
T0DC4 000:319.785   Value=0x00000000
T0DC4 000:319.795 - 0.020ms returns 0x00
T0DC4 000:319.803 JLINK_GetDebugInfo(0x103 = JLINKARM_DEBUG_INFO_TPIU_ADDR_INDEX)
T0DC4 000:319.810   Value=0xE0040000
T0DC4 000:319.819 - 0.019ms returns 0x00
T0DC4 000:319.828 JLINK_GetDebugInfo(0x104 = JLINKARM_DEBUG_INFO_ITM_ADDR_INDEX)
T0DC4 000:319.834   Value=0xE0000000
T0DC4 000:319.843 - 0.019ms returns 0x00
T0DC4 000:319.852 JLINK_GetDebugInfo(0x105 = JLINKARM_DEBUG_INFO_DWT_ADDR_INDEX)
T0DC4 000:319.858   Value=0xE0001000
T0DC4 000:319.868 - 0.019ms returns 0x00
T0DC4 000:319.876 JLINK_GetDebugInfo(0x106 = JLINKARM_DEBUG_INFO_FPB_ADDR_INDEX)
T0DC4 000:319.883   Value=0xE0002000
T0DC4 000:319.892 - 0.019ms returns 0x00
T0DC4 000:319.900 JLINK_GetDebugInfo(0x107 = JLINKARM_DEBUG_INFO_NVIC_ADDR_INDEX)
T0DC4 000:319.907   Value=0xE000E000
T0DC4 000:319.916 - 0.019ms returns 0x00
T0DC4 000:319.924 JLINK_GetDebugInfo(0x10C = JLINKARM_DEBUG_INFO_DBG_ADDR_INDEX)
T0DC4 000:319.931   Value=0xE000EDF0
T0DC4 000:319.940 - 0.019ms returns 0x00
T0DC4 000:319.948 JLINK_GetDebugInfo(0x01 = Unknown)
T0DC4 000:319.960   Value=0x00000000
T0DC4 000:319.969 - 0.023ms returns 0x00
T0DC4 000:319.982 JLINK_ReadMemU32(0xE000ED00, 0x0001 Items, ...)
T0DC4 000:319.995   CPU_ReadMem(4 bytes @ 0xE000ED00)
T0DC4 000:320.273   Data:  31 C2 1F 41
T0DC4 000:320.298    - CPUID
T0DC4 000:320.308 - 0.329ms returns 1
T0DC4 000:320.319 JLINK_GetDebugInfo(0x10F = JLINKARM_DEBUG_INFO_HAS_CORTEX_M_SECURITY_EXT_INDEX)
T0DC4 000:320.327   Value=0x00000000
T0DC4 000:320.336 - 0.020ms returns 0x00
T0DC4 000:320.348 JLINK_SetResetType(JLINKARM_CM3_RESET_TYPE_NORMAL)
T0DC4 000:320.355 - 0.010ms returns JLINKARM_CM3_RESET_TYPE_NORMAL
T0DC4 000:320.364 JLINK_Reset()
T0DC4 000:320.389   CPU is running
T0DC4 000:320.400   CPU_WriteMem(4 bytes @ 0xE000EDF0)
T0DC4 000:320.639   CPU is running
T0DC4 000:320.668   CPU_WriteMem(4 bytes @ 0xE000EDFC)
T0DC4 000:326.877   Reset: Halt core after reset via DEMCR.VC_CORERESET.
T0DC4 000:333.041   Reset: Reset device via AIRCR.SYSRESETREQ.
T0DC4 000:333.066   CPU is running
T0DC4 000:333.079   CPU_WriteMem(4 bytes @ 0xE000ED0C)
T0DC4 000:385.550   CPU_ReadMem(4 bytes @ 0xE000EDF0)
T0DC4 000:385.903   CPU_ReadMem(4 bytes @ 0xE000EDF0)
T0DC4 000:386.234   CPU is running
T0DC4 000:386.250   CPU_WriteMem(4 bytes @ 0xE000EDF0)
T0DC4 000:386.546   CPU is running
T0DC4 000:386.562   CPU_WriteMem(4 bytes @ 0xE000EDFC)
T0DC4 000:392.510   CPU_ReadMem(4 bytes @ 0xE000EDF0)
T0DC4 000:394.222   CPU_WriteMem(4 bytes @ 0xE000EDFC)
T0DC4 000:394.542   CPU_WriteMem(4 bytes @ 0xE0001028)
T0DC4 000:394.827   CPU_WriteMem(4 bytes @ 0xE0001038)
T0DC4 000:395.089   CPU_WriteMem(4 bytes @ 0xE0001048)
T0DC4 000:395.335   CPU_WriteMem(4 bytes @ 0xE0001058)
T0DC4 000:395.558   CPU_WriteMem(4 bytes @ 0xE0002000)
T0DC4 000:395.782   CPU_ReadMem(4 bytes @ 0xE000EDFC)
T0DC4 000:396.030   CPU_ReadMem(4 bytes @ 0xE0001000)
T0DC4 000:396.283 - 75.926ms
T0DC4 000:396.303 JLINK_Halt()
T0DC4 000:396.310 - 0.009ms returns 0x00
T0DC4 000:396.318 JLINK_ReadMemU32(0xE000EDF0, 0x0001 Items, ...)
T0DC4 000:396.333   CPU_ReadMem(4 bytes @ 0xE000EDF0)
T0DC4 000:396.622   Data:  03 00 03 00
T0DC4 000:396.637    - DHCSR
T0DC4 000:396.647 - 0.331ms returns 1
T0DC4 000:396.660 JLINK_WriteU32(0xE000EDF0, 0xA05F0003)
T0DC4 000:396.667    - DHCSR
T0DC4 000:396.695   CPU_WriteMem(4 bytes @ 0xE000EDF0)
T0DC4 000:396.915 - 0.262ms returns 0
T0DC4 000:396.932 JLINK_WriteU32(0xE000EDFC, 0x01000000)
T0DC4 000:396.939    - DEMCR
T0DC4 000:396.954   CPU_WriteMem(4 bytes @ 0xE000EDFC)
T0DC4 000:397.171 - 0.246ms returns 0
T0DC4 000:423.829 JLINK_GetHWStatus(...)
T0DC4 000:424.051 - 0.231ms returns 0x00
T0DC4 000:444.778 JLINK_GetNumBPUnits(Type = 0xFFFFFF00)
T0DC4 000:444.798 - 0.023ms returns 0x06
T0DC4 000:444.807 JLINK_GetNumBPUnits(Type = 0xF0)
T0DC4 000:444.813 - 0.009ms returns 0x2000
T0DC4 000:444.821 JLINK_GetNumWPUnits()
T0DC4 000:444.828 - 0.009ms returns 0x04
T0DC4 000:464.955 JLINK_GetSpeed()
T0DC4 000:464.973 - 0.022ms returns 0x2710
T0DC4 000:477.832 JLINK_ReadMemU32(0xE000E004, 0x0001 Items, ...)
T0DC4 000:477.875   CPU_ReadMem(4 bytes @ 0xE000E004)
T0DC4 000:478.222   Data:  01 00 00 00
T0DC4 000:478.240 - 0.411ms returns 1
T0DC4 000:478.252 JLINK_ReadMemU32(0xE000E004, 0x0001 Items, ...)
T0DC4 000:478.266   CPU_ReadMem(4 bytes @ 0xE000E004)
T0DC4 000:478.563   Data:  01 00 00 00
T0DC4 000:478.577 - 0.328ms returns 1
T0DC4 000:478.588 JLINK_WriteMemEx(0xE0001000, 0x001C Bytes, ..., Flags = 0x02000004)
T0DC4 000:478.596   Data:  01 00 00 00 00 00 00 00 00 00 00 00 00 00 00 00 ...
T0DC4 000:479.092   CPU_WriteMem(28 bytes @ 0xE0001000)
T0DC4 000:479.400 - 0.821ms returns 0x1C
T0DC4 000:479.422 JLINK_Halt()
T0DC4 000:479.429 - 0.010ms returns 0x00
T0DC4 000:479.437 JLINK_IsHalted()
T0DC4 000:479.444 - 0.010ms returns TRUE
T0DC4 000:484.589 JLINK_WriteMem(0x20000000, 0x0164 Bytes, ...)
T0DC4 000:484.604   Data:  00 BE 0A E0 0D 78 2D 06 68 40 08 24 40 00 00 D3 ...
T0DC4 000:485.082   CPU_WriteMem(356 bytes @ 0x20000000)
T0DC4 000:486.203 - 1.626ms returns 0x164
T0DC4 000:486.263 JLINK_WriteReg(R0, 0x08000000)
T0DC4 000:486.278 - 0.021ms returns 0x00
T0DC4 000:486.291 JLINK_WriteReg(R1, 0x00B71B00)
T0DC4 000:486.301 - 0.014ms returns 0x00
T0DC4 000:486.312 JLINK_WriteReg(R2, 0x00000001)
T0DC4 000:486.322 - 0.020ms returns 0x00
T0DC4 000:486.341 JLINK_WriteReg(R3, 0x00000000)
T0DC4 000:486.351 - 0.014ms returns 0x00
T0DC4 000:486.361 JLINK_WriteReg(R4, 0x00000000)
T0DC4 000:486.371 - 0.014ms returns 0x00
T0DC4 000:486.382 JLINK_WriteReg(R5, 0x00000000)
T0DC4 000:486.392 - 0.014ms returns 0x00
T0DC4 000:486.403 JLINK_WriteReg(R6, 0x00000000)
T0DC4 000:486.412 - 0.014ms returns 0x00
T0DC4 000:486.423 JLINK_WriteReg(R7, 0x00000000)
T0DC4 000:486.433 - 0.014ms returns 0x00
T0DC4 000:486.444 JLINK_WriteReg(R8, 0x00000000)
T0DC4 000:486.454 - 0.014ms returns 0x00
T0DC4 000:486.464 JLINK_WriteReg(R9, 0x20000160)
T0DC4 000:486.474 - 0.014ms returns 0x00
T0DC4 000:486.485 JLINK_WriteReg(R10, 0x00000000)
T0DC4 000:486.495 - 0.014ms returns 0x00
T0DC4 000:486.506 JLINK_WriteReg(R11, 0x00000000)
T0DC4 000:486.515 - 0.014ms returns 0x00
T0DC4 000:486.526 JLINK_WriteReg(R12, 0x00000000)
T0DC4 000:486.536 - 0.014ms returns 0x00
T0DC4 000:486.547 JLINK_WriteReg(R13 (SP), 0x20001000)
T0DC4 000:486.558 - 0.015ms returns 0x00
T0DC4 000:486.569 JLINK_WriteReg(R14, 0x20000001)
T0DC4 000:486.579 - 0.014ms returns 0x00
T0DC4 000:486.590 JLINK_WriteReg(R15 (PC), 0x20000038)
T0DC4 000:486.600 - 0.014ms returns 0x00
T0DC4 000:486.611 JLINK_WriteReg(XPSR, 0x01000000)
T0DC4 000:486.621 - 0.014ms returns 0x00
T0DC4 000:486.631 JLINK_WriteReg(MSP, 0x20001000)
T0DC4 000:486.641 - 0.013ms returns 0x00
T0DC4 000:486.652 JLINK_WriteReg(PSP, 0x20001000)
T0DC4 000:486.661 - 0.014ms returns 0x00
T0DC4 000:486.672 JLINK_WriteReg(CFBP, 0x00000000)
T0DC4 000:486.682 - 0.014ms returns 0x00
T0DC4 000:486.694   JLINK_SetBPEx(Addr = 0x20000000, Type = 0xFFFFFFF2)
T0DC4 000:486.712   CPU_ReadMem(2 bytes @ 0x20000000)
T0DC4 000:487.002 - 0.318ms returns 0x00000001
T0DC4 000:487.019 JLINK_Go()
T0DC4 000:487.031   CPU_WriteMem(2 bytes @ 0x20000000)
T0DC4 000:487.303   CPU_ReadMem(4 bytes @ 0xE0001000)
T0DC4 000:487.554   CPU_WriteMem(4 bytes @ 0xE0002008)
T0DC4 000:487.569   CPU_WriteMem(4 bytes @ 0xE000200C)
T0DC4 000:487.579   CPU_WriteMem(4 bytes @ 0xE0002010)
T0DC4 000:487.589   CPU_WriteMem(4 bytes @ 0xE0002014)
T0DC4 000:487.598   CPU_WriteMem(4 bytes @ 0xE0002018)
T0DC4 000:487.608   CPU_WriteMem(4 bytes @ 0xE000201C)
T0DC4 000:488.384   CPU_WriteMem(4 bytes @ 0xE0001004)
T0DC4 000:489.947 - 2.938ms
T0DC4 000:489.966 JLINK_IsHalted()
T0DC4 000:491.141   CPU_ReadMem(2 bytes @ 0x20000000)
T0DC4 000:491.427 - 1.469ms returns TRUE
T0DC4 000:491.445 JLINK_ReadReg(R15 (PC))
T0DC4 000:491.456 - 0.013ms returns 0x20000000
T0DC4 000:491.465 JLINK_ClrBPEx(BPHandle = 0x00000001)
T0DC4 000:491.472 - 0.010ms returns 0x00
T0DC4 000:491.481 JLINK_ReadReg(R0)
T0DC4 000:491.488 - 0.010ms returns 0x00000000
T0DC4 000:491.803 JLINK_WriteReg(R0, 0x08000000)
T0DC4 000:491.815 - 0.015ms returns 0x00
T0DC4 000:491.824 JLINK_WriteReg(R1, 0x00B71B00)
T0DC4 000:491.830 - 0.009ms returns 0x00
T0DC4 000:491.838 JLINK_WriteReg(R2, 0x00000001)
T0DC4 000:491.845 - 0.009ms returns 0x00
T0DC4 000:491.853 JLINK_WriteReg(R3, 0x00000000)
T0DC4 000:491.859 - 0.009ms returns 0x00
T0DC4 000:491.867 JLINK_WriteReg(R4, 0x00000000)
T0DC4 000:491.874 - 0.009ms returns 0x00
T0DC4 000:491.882 JLINK_WriteReg(R5, 0x00000000)
T0DC4 000:491.889 - 0.009ms returns 0x00
T0DC4 000:491.896 JLINK_WriteReg(R6, 0x00000000)
T0DC4 000:491.903 - 0.009ms returns 0x00
T0DC4 000:491.911 JLINK_WriteReg(R7, 0x00000000)
T0DC4 000:491.917 - 0.009ms returns 0x00
T0DC4 000:491.925 JLINK_WriteReg(R8, 0x00000000)
T0DC4 000:491.932 - 0.009ms returns 0x00
T0DC4 000:491.940 JLINK_WriteReg(R9, 0x20000160)
T0DC4 000:491.946 - 0.009ms returns 0x00
T0DC4 000:491.954 JLINK_WriteReg(R10, 0x00000000)
T0DC4 000:491.961 - 0.009ms returns 0x00
T0DC4 000:491.968 JLINK_WriteReg(R11, 0x00000000)
T0DC4 000:491.975 - 0.009ms returns 0x00
T0DC4 000:491.983 JLINK_WriteReg(R12, 0x00000000)
T0DC4 000:491.990 - 0.009ms returns 0x00
T0DC4 000:491.997 JLINK_WriteReg(R13 (SP), 0x20001000)
T0DC4 000:492.005 - 0.010ms returns 0x00
T0DC4 000:492.013 JLINK_WriteReg(R14, 0x20000001)
T0DC4 000:492.056 - 0.048ms returns 0x00
T0DC4 000:492.066 JLINK_WriteReg(R15 (PC), 0x2000007C)
T0DC4 000:492.073 - 0.010ms returns 0x00
T0DC4 000:492.081 JLINK_WriteReg(XPSR, 0x01000000)
T0DC4 000:492.088 - 0.009ms returns 0x00
T0DC4 000:492.096 JLINK_WriteReg(MSP, 0x20001000)
T0DC4 000:492.103 - 0.009ms returns 0x00
T0DC4 000:492.110 JLINK_WriteReg(PSP, 0x20001000)
T0DC4 000:492.117 - 0.009ms returns 0x00
T0DC4 000:492.125 JLINK_WriteReg(CFBP, 0x00000000)
T0DC4 000:492.132 - 0.009ms returns 0x00
T0DC4 000:492.141   JLINK_SetBPEx(Addr = 0x20000000, Type = 0xFFFFFFF2)
T0DC4 000:492.151 - 0.014ms returns 0x00000002
T0DC4 000:492.159 JLINK_Go()
T0DC4 000:492.174   CPU_ReadMem(4 bytes @ 0xE0001000)
T0DC4 000:493.843 - 1.693ms
T0DC4 000:493.861 JLINK_IsHalted()
T0DC4 000:494.120 - 0.268ms returns FALSE
T0DC4 000:515.148 JLINK_IsHalted()
T0DC4 000:515.472 - 0.332ms returns FALSE
T0DC4 000:517.146 JLINK_IsHalted()
T0DC4 000:518.419   CPU_ReadMem(2 bytes @ 0x20000000)
T0DC4 000:518.711 - 1.573ms returns TRUE
T0DC4 000:518.729 JLINK_ReadReg(R15 (PC))
T0DC4 000:518.744 - 0.018ms returns 0x20000000
T0DC4 000:518.753 JLINK_ClrBPEx(BPHandle = 0x00000002)
T0DC4 000:518.760 - 0.010ms returns 0x00
T0DC4 000:518.769 JLINK_ReadReg(R0)
T0DC4 000:518.775 - 0.010ms returns 0x00000000
T0DC4 000:571.540 JLINK_WriteReg(R0, 0x00000001)
T0DC4 000:571.564 - 0.027ms returns 0x00
T0DC4 000:571.573 JLINK_WriteReg(R1, 0x00B71B00)
T0DC4 000:571.580 - 0.010ms returns 0x00
T0DC4 000:571.588 JLINK_WriteReg(R2, 0x00000001)
T0DC4 000:571.594 - 0.010ms returns 0x00
T0DC4 000:571.602 JLINK_WriteReg(R3, 0x00000000)
T0DC4 000:571.609 - 0.009ms returns 0x00
T0DC4 000:571.617 JLINK_WriteReg(R4, 0x00000000)
T0DC4 000:571.623 - 0.009ms returns 0x00
T0DC4 000:571.631 JLINK_WriteReg(R5, 0x00000000)
T0DC4 000:571.638 - 0.009ms returns 0x00
T0DC4 000:571.645 JLINK_WriteReg(R6, 0x00000000)
T0DC4 000:571.652 - 0.009ms returns 0x00
T0DC4 000:571.660 JLINK_WriteReg(R7, 0x00000000)
T0DC4 000:571.667 - 0.009ms returns 0x00
T0DC4 000:571.675 JLINK_WriteReg(R8, 0x00000000)
T0DC4 000:571.681 - 0.009ms returns 0x00
T0DC4 000:571.689 JLINK_WriteReg(R9, 0x20000160)
T0DC4 000:571.696 - 0.009ms returns 0x00
T0DC4 000:571.704 JLINK_WriteReg(R10, 0x00000000)
T0DC4 000:571.710 - 0.009ms returns 0x00
T0DC4 000:571.718 JLINK_WriteReg(R11, 0x00000000)
T0DC4 000:571.725 - 0.009ms returns 0x00
T0DC4 000:571.732 JLINK_WriteReg(R12, 0x00000000)
T0DC4 000:571.739 - 0.009ms returns 0x00
T0DC4 000:571.747 JLINK_WriteReg(R13 (SP), 0x20001000)
T0DC4 000:571.755 - 0.010ms returns 0x00
T0DC4 000:571.762 JLINK_WriteReg(R14, 0x20000001)
T0DC4 000:571.769 - 0.009ms returns 0x00
T0DC4 000:571.777 JLINK_WriteReg(R15 (PC), 0x2000006A)
T0DC4 000:571.784 - 0.009ms returns 0x00
T0DC4 000:571.792 JLINK_WriteReg(XPSR, 0x01000000)
T0DC4 000:571.798 - 0.009ms returns 0x00
T0DC4 000:571.806 JLINK_WriteReg(MSP, 0x20001000)
T0DC4 000:571.813 - 0.009ms returns 0x00
T0DC4 000:571.821 JLINK_WriteReg(PSP, 0x20001000)
T0DC4 000:571.827 - 0.009ms returns 0x00
T0DC4 000:571.835 JLINK_WriteReg(CFBP, 0x00000000)
T0DC4 000:571.842 - 0.009ms returns 0x00
T0DC4 000:571.850   JLINK_SetBPEx(Addr = 0x20000000, Type = 0xFFFFFFF2)
T0DC4 000:571.861 - 0.014ms returns 0x00000003
T0DC4 000:571.869 JLINK_Go()
T0DC4 000:571.886   CPU_ReadMem(4 bytes @ 0xE0001000)
T0DC4 000:573.755 - 1.895ms
T0DC4 000:573.774 JLINK_IsHalted()
T0DC4 000:575.106   CPU_ReadMem(2 bytes @ 0x20000000)
T0DC4 000:575.431 - 1.666ms returns TRUE
T0DC4 000:575.448 JLINK_ReadReg(R15 (PC))
T0DC4 000:575.459 - 0.014ms returns 0x20000000
T0DC4 000:575.468 JLINK_ClrBPEx(BPHandle = 0x00000003)
T0DC4 000:575.476 - 0.010ms returns 0x00
T0DC4 000:575.484 JLINK_ReadReg(R0)
T0DC4 000:575.491 - 0.010ms returns 0x00000000
T0DC4 000:587.132 JLINK_WriteMem(0x20000000, 0x0164 Bytes, ...)
T0DC4 000:587.148   Data:  00 BE 0A E0 0D 78 2D 06 68 40 08 24 40 00 00 D3 ...
T0DC4 000:587.170   CPU_WriteMem(356 bytes @ 0x20000000)
T0DC4 000:588.356 - 1.232ms returns 0x164
T0DC4 000:588.397 JLINK_WriteReg(R0, 0x08000000)
T0DC4 000:588.411 - 0.018ms returns 0x00
T0DC4 000:588.420 JLINK_WriteReg(R1, 0x00B71B00)
T0DC4 000:588.427 - 0.010ms returns 0x00
T0DC4 000:588.436 JLINK_WriteReg(R2, 0x00000002)
T0DC4 000:588.443 - 0.010ms returns 0x00
T0DC4 000:588.451 JLINK_WriteReg(R3, 0x00000000)
T0DC4 000:588.458 - 0.010ms returns 0x00
T0DC4 000:588.466 JLINK_WriteReg(R4, 0x00000000)
T0DC4 000:588.473 - 0.010ms returns 0x00
T0DC4 000:588.481 JLINK_WriteReg(R5, 0x00000000)
T0DC4 000:588.488 - 0.010ms returns 0x00
T0DC4 000:588.496 JLINK_WriteReg(R6, 0x00000000)
T0DC4 000:588.503 - 0.010ms returns 0x00
T0DC4 000:588.511 JLINK_WriteReg(R7, 0x00000000)
T0DC4 000:588.518 - 0.010ms returns 0x00
T0DC4 000:588.526 JLINK_WriteReg(R8, 0x00000000)
T0DC4 000:588.533 - 0.010ms returns 0x00
T0DC4 000:588.541 JLINK_WriteReg(R9, 0x20000160)
T0DC4 000:588.548 - 0.010ms returns 0x00
T0DC4 000:588.556 JLINK_WriteReg(R10, 0x00000000)
T0DC4 000:588.563 - 0.010ms returns 0x00
T0DC4 000:588.571 JLINK_WriteReg(R11, 0x00000000)
T0DC4 000:588.578 - 0.010ms returns 0x00
T0DC4 000:588.586 JLINK_WriteReg(R12, 0x00000000)
T0DC4 000:588.593 - 0.010ms returns 0x00
T0DC4 000:588.601 JLINK_WriteReg(R13 (SP), 0x20001000)
T0DC4 000:588.609 - 0.011ms returns 0x00
T0DC4 000:588.617 JLINK_WriteReg(R14, 0x20000001)
T0DC4 000:588.624 - 0.010ms returns 0x00
T0DC4 000:588.632 JLINK_WriteReg(R15 (PC), 0x20000038)
T0DC4 000:588.639 - 0.010ms returns 0x00
T0DC4 000:588.648 JLINK_WriteReg(XPSR, 0x01000000)
T0DC4 000:588.655 - 0.010ms returns 0x00
T0DC4 000:588.663 JLINK_WriteReg(MSP, 0x20001000)
T0DC4 000:588.670 - 0.010ms returns 0x00
T0DC4 000:588.678 JLINK_WriteReg(PSP, 0x20001000)
T0DC4 000:588.685 - 0.010ms returns 0x00
T0DC4 000:588.693 JLINK_WriteReg(CFBP, 0x00000000)
T0DC4 000:588.700 - 0.010ms returns 0x00
T0DC4 000:588.709   JLINK_SetBPEx(Addr = 0x20000000, Type = 0xFFFFFFF2)
T0DC4 000:588.722   CPU_ReadMem(2 bytes @ 0x20000000)
T0DC4 000:589.072 - 0.372ms returns 0x00000004
T0DC4 000:589.089 JLINK_Go()
T0DC4 000:589.100   CPU_WriteMem(2 bytes @ 0x20000000)
T0DC4 000:589.372   CPU_ReadMem(4 bytes @ 0xE0001000)
T0DC4 000:591.161 - 2.081ms
T0DC4 000:591.179 JLINK_IsHalted()
T0DC4 000:592.549   CPU_ReadMem(2 bytes @ 0x20000000)
T0DC4 000:592.852 - 1.682ms returns TRUE
T0DC4 000:592.870 JLINK_ReadReg(R15 (PC))
T0DC4 000:592.880 - 0.014ms returns 0x20000000
T0DC4 000:592.889 JLINK_ClrBPEx(BPHandle = 0x00000004)
T0DC4 000:592.896 - 0.010ms returns 0x00
T0DC4 000:592.905 JLINK_ReadReg(R0)
T0DC4 000:592.912 - 0.012ms returns 0x00000000
T0DC4 000:593.372 JLINK_WriteMem(0x20000164, 0x029C Bytes, ...)
T0DC4 000:593.386   Data:  40 93 00 20 45 01 00 08 7F 25 00 08 AD 0F 00 08 ...
T0DC4 000:593.404   CPU_WriteMem(668 bytes @ 0x20000164)
T0DC4 000:595.101 - 1.739ms returns 0x29C
T0DC4 000:595.121 JLINK_WriteMem(0x20000400, 0x0164 Bytes, ...)
T0DC4 000:595.128   Data:  59 46 C0 F1 40 02 50 46 00 F0 94 F9 06 46 0D 46 ...
T0DC4 000:595.153   CPU_WriteMem(356 bytes @ 0x20000400)
T0DC4 000:596.329 - 1.217ms returns 0x164
T0DC4 000:596.350 JLINK_WriteReg(R0, 0x08000000)
T0DC4 000:596.361 - 0.015ms returns 0x00
T0DC4 000:596.370 JLINK_WriteReg(R1, 0x00000400)
T0DC4 000:596.377 - 0.010ms returns 0x00
T0DC4 000:596.385 JLINK_WriteReg(R2, 0x20000164)
T0DC4 000:596.392 - 0.010ms returns 0x00
T0DC4 000:596.401 JLINK_WriteReg(R3, 0x00000000)
T0DC4 000:596.407 - 0.010ms returns 0x00
T0DC4 000:596.416 JLINK_WriteReg(R4, 0x00000000)
T0DC4 000:596.422 - 0.010ms returns 0x00
T0DC4 000:596.431 JLINK_WriteReg(R5, 0x00000000)
T0DC4 000:596.437 - 0.010ms returns 0x00
T0DC4 000:596.445 JLINK_WriteReg(R6, 0x00000000)
T0DC4 000:596.452 - 0.010ms returns 0x00
T0DC4 000:596.460 JLINK_WriteReg(R7, 0x00000000)
T0DC4 000:596.467 - 0.010ms returns 0x00
T0DC4 000:596.475 JLINK_WriteReg(R8, 0x00000000)
T0DC4 000:596.482 - 0.010ms returns 0x00
T0DC4 000:596.490 JLINK_WriteReg(R9, 0x20000160)
T0DC4 000:596.497 - 0.010ms returns 0x00
T0DC4 000:596.505 JLINK_WriteReg(R10, 0x00000000)
T0DC4 000:596.512 - 0.010ms returns 0x00
T0DC4 000:596.523 JLINK_WriteReg(R11, 0x00000000)
T0DC4 000:596.531 - 0.011ms returns 0x00
T0DC4 000:596.539 JLINK_WriteReg(R12, 0x00000000)
T0DC4 000:596.546 - 0.010ms returns 0x00
T0DC4 000:596.554 JLINK_WriteReg(R13 (SP), 0x20001000)
T0DC4 000:596.561 - 0.011ms returns 0x00
T0DC4 000:596.570 JLINK_WriteReg(R14, 0x20000001)
T0DC4 000:596.577 - 0.010ms returns 0x00
T0DC4 000:596.585 JLINK_WriteReg(R15 (PC), 0x200000F4)
T0DC4 000:596.592 - 0.010ms returns 0x00
T0DC4 000:596.600 JLINK_WriteReg(XPSR, 0x01000000)
T0DC4 000:596.607 - 0.010ms returns 0x00
T0DC4 000:596.615 JLINK_WriteReg(MSP, 0x20001000)
T0DC4 000:596.622 - 0.010ms returns 0x00
T0DC4 000:596.630 JLINK_WriteReg(PSP, 0x20001000)
T0DC4 000:596.637 - 0.010ms returns 0x00
T0DC4 000:596.645 JLINK_WriteReg(CFBP, 0x00000000)
T0DC4 000:596.652 - 0.010ms returns 0x00
T0DC4 000:596.660   JLINK_SetBPEx(Addr = 0x20000000, Type = 0xFFFFFFF2)
T0DC4 000:596.671 - 0.014ms returns 0x00000005
T0DC4 000:596.679 JLINK_Go()
T0DC4 000:596.692   CPU_ReadMem(4 bytes @ 0xE0001000)
T0DC4 000:598.352 - 1.681ms
T0DC4 000:598.369 JLINK_IsHalted()
T0DC4 000:598.691 - 0.330ms returns FALSE
T0DC4 000:602.956 JLINK_IsHalted()
T0DC4 000:603.270 - 0.323ms returns FALSE
T0DC4 000:604.960 JLINK_IsHalted()
T0DC4 000:605.253 - 0.302ms returns FALSE
T0DC4 000:606.942 JLINK_IsHalted()
T0DC4 000:607.240 - 0.306ms returns FALSE
T0DC4 000:609.275 JLINK_IsHalted()
T0DC4 000:609.518 - 0.253ms returns FALSE
T0DC4 000:802.405 JLINK_IsHalted()
T0DC4 000:803.743   CPU_ReadMem(2 bytes @ 0x20000000)
T0DC4 000:804.070 - 1.672ms returns TRUE
T0DC4 000:804.086 JLINK_ReadReg(R15 (PC))
T0DC4 000:804.097 - 0.014ms returns 0x20000000
T0DC4 000:804.106 JLINK_ClrBPEx(BPHandle = 0x00000005)
T0DC4 000:804.113 - 0.010ms returns 0x00
T0DC4 000:804.122 JLINK_ReadReg(R0)
T0DC4 000:804.129 - 0.010ms returns 0x00000000
T0DC4 000:804.628 JLINK_WriteMem(0x20000164, 0x029C Bytes, ...)
T0DC4 000:804.639   Data:  06 58 47 EA 16 37 B5 EB 08 05 6E EB 07 0C 87 0E ...
T0DC4 000:804.656   CPU_WriteMem(668 bytes @ 0x20000164)
T0DC4 000:806.388 - 1.767ms returns 0x29C
T0DC4 000:806.403 JLINK_WriteMem(0x20000400, 0x0164 Bytes, ...)
T0DC4 000:806.411   Data:  FF F7 98 FF 08 43 05 D0 01 20 04 E0 20 46 39 46 ...
T0DC4 000:806.425   CPU_WriteMem(356 bytes @ 0x20000400)
T0DC4 000:807.650 - 1.254ms returns 0x164
T0DC4 000:807.669 JLINK_WriteReg(R0, 0x08000400)
T0DC4 000:807.678 - 0.013ms returns 0x00
T0DC4 000:807.687 JLINK_WriteReg(R1, 0x00000400)
T0DC4 000:807.694 - 0.010ms returns 0x00
T0DC4 000:807.702 JLINK_WriteReg(R2, 0x20000164)
T0DC4 000:807.709 - 0.010ms returns 0x00
T0DC4 000:807.718 JLINK_WriteReg(R3, 0x00000000)
T0DC4 000:807.725 - 0.010ms returns 0x00
T0DC4 000:807.733 JLINK_WriteReg(R4, 0x00000000)
T0DC4 000:807.740 - 0.010ms returns 0x00
T0DC4 000:807.748 JLINK_WriteReg(R5, 0x00000000)
T0DC4 000:807.755 - 0.010ms returns 0x00
T0DC4 000:807.763 JLINK_WriteReg(R6, 0x00000000)
T0DC4 000:807.770 - 0.010ms returns 0x00
T0DC4 000:807.779 JLINK_WriteReg(R7, 0x00000000)
T0DC4 000:807.785 - 0.010ms returns 0x00
T0DC4 000:807.793 JLINK_WriteReg(R8, 0x00000000)
T0DC4 000:807.800 - 0.010ms returns 0x00
T0DC4 000:807.808 JLINK_WriteReg(R9, 0x20000160)
T0DC4 000:807.815 - 0.010ms returns 0x00
T0DC4 000:807.823 JLINK_WriteReg(R10, 0x00000000)
T0DC4 000:807.830 - 0.010ms returns 0x00
T0DC4 000:807.838 JLINK_WriteReg(R11, 0x00000000)
T0DC4 000:807.845 - 0.010ms returns 0x00
T0DC4 000:807.853 JLINK_WriteReg(R12, 0x00000000)
T0DC4 000:807.860 - 0.010ms returns 0x00
T0DC4 000:807.868 JLINK_WriteReg(R13 (SP), 0x20001000)
T0DC4 000:807.876 - 0.010ms returns 0x00
T0DC4 000:807.884 JLINK_WriteReg(R14, 0x20000001)
T0DC4 000:807.891 - 0.010ms returns 0x00
T0DC4 000:807.899 JLINK_WriteReg(R15 (PC), 0x200000F4)
T0DC4 000:807.906 - 0.010ms returns 0x00
T0DC4 000:807.914 JLINK_WriteReg(XPSR, 0x01000000)
T0DC4 000:807.921 - 0.010ms returns 0x00
T0DC4 000:807.929 JLINK_WriteReg(MSP, 0x20001000)
T0DC4 000:807.936 - 0.010ms returns 0x00
T0DC4 000:807.944 JLINK_WriteReg(PSP, 0x20001000)
T0DC4 000:807.953 - 0.013ms returns 0x00
T0DC4 000:807.963 JLINK_WriteReg(CFBP, 0x00000000)
T0DC4 000:807.970 - 0.010ms returns 0x00
T0DC4 000:807.979   JLINK_SetBPEx(Addr = 0x20000000, Type = 0xFFFFFFF2)
T0DC4 000:807.989 - 0.014ms returns 0x00000006
T0DC4 000:807.997 JLINK_Go()
T0DC4 000:808.010   CPU_ReadMem(4 bytes @ 0xE0001000)
T0DC4 000:809.662 - 1.673ms
T0DC4 000:809.679 JLINK_IsHalted()
T0DC4 000:809.942 - 0.270ms returns FALSE
T0DC4 000:811.291 JLINK_IsHalted()
T0DC4 000:811.535 - 0.251ms returns FALSE
T0DC4 000:813.364 JLINK_IsHalted()
T0DC4 000:813.653 - 0.297ms returns FALSE
T0DC4 000:815.281 JLINK_IsHalted()
T0DC4 000:815.573 - 0.299ms returns FALSE
T0DC4 000:817.274 JLINK_IsHalted()
T0DC4 000:817.566 - 0.298ms returns FALSE
T0DC4 000:819.273 JLINK_IsHalted()
T0DC4 000:819.506 - 0.240ms returns FALSE
T0DC4 000:821.272 JLINK_IsHalted()
T0DC4 000:821.547 - 0.282ms returns FALSE
T0DC4 000:823.262 JLINK_IsHalted()
T0DC4 000:823.538 - 0.282ms returns FALSE
T0DC4 000:825.257 JLINK_IsHalted()
T0DC4 000:825.547 - 0.297ms returns FALSE
T0DC4 000:827.334 JLINK_IsHalted()
T0DC4 000:827.647 - 0.320ms returns FALSE
T0DC4 000:829.304 JLINK_IsHalted()
T0DC4 000:829.606 - 0.310ms returns FALSE
T0DC4 000:831.306 JLINK_IsHalted()
T0DC4 000:831.586 - 0.287ms returns FALSE
T0DC4 000:834.252 JLINK_IsHalted()
T0DC4 000:834.535 - 0.290ms returns FALSE
T0DC4 000:836.232 JLINK_IsHalted()
T0DC4 000:836.528 - 0.302ms returns FALSE
T0DC4 000:838.317 JLINK_IsHalted()
T0DC4 000:838.665 - 0.355ms returns FALSE
T0DC4 000:840.229 JLINK_IsHalted()
T0DC4 000:841.544   CPU_ReadMem(2 bytes @ 0x20000000)
T0DC4 000:841.872 - 1.650ms returns TRUE
T0DC4 000:841.887 JLINK_ReadReg(R15 (PC))
T0DC4 000:841.901 - 0.017ms returns 0x20000000
T0DC4 000:841.910 JLINK_ClrBPEx(BPHandle = 0x00000006)
T0DC4 000:841.918 - 0.011ms returns 0x00
T0DC4 000:841.926 JLINK_ReadReg(R0)
T0DC4 000:841.933 - 0.010ms returns 0x00000000
T0DC4 000:842.423 JLINK_WriteMem(0x20000164, 0x029C Bytes, ...)
T0DC4 000:842.434   Data:  01 0A D3 E7 30 00 00 20 7C B5 08 20 01 21 01 24 ...
T0DC4 000:842.451   CPU_WriteMem(668 bytes @ 0x20000164)
T0DC4 000:844.218 - 1.804ms returns 0x29C
T0DC4 000:844.236 JLINK_WriteMem(0x20000400, 0x0164 Bytes, ...)
T0DC4 000:844.244   Data:  05 12 43 EA 04 13 43 EA 05 23 43 EA 06 43 43 EA ...
T0DC4 000:844.261   CPU_WriteMem(356 bytes @ 0x20000400)
T0DC4 000:845.403 - 1.174ms returns 0x164
T0DC4 000:845.421 JLINK_WriteReg(R0, 0x08000800)
T0DC4 000:845.431 - 0.013ms returns 0x00
T0DC4 000:845.440 JLINK_WriteReg(R1, 0x00000400)
T0DC4 000:845.447 - 0.010ms returns 0x00
T0DC4 000:845.455 JLINK_WriteReg(R2, 0x20000164)
T0DC4 000:845.462 - 0.010ms returns 0x00
T0DC4 000:845.470 JLINK_WriteReg(R3, 0x00000000)
T0DC4 000:845.477 - 0.010ms returns 0x00
T0DC4 000:845.485 JLINK_WriteReg(R4, 0x00000000)
T0DC4 000:845.492 - 0.010ms returns 0x00
T0DC4 000:845.500 JLINK_WriteReg(R5, 0x00000000)
T0DC4 000:845.507 - 0.010ms returns 0x00
T0DC4 000:845.515 JLINK_WriteReg(R6, 0x00000000)
T0DC4 000:845.522 - 0.010ms returns 0x00
T0DC4 000:845.530 JLINK_WriteReg(R7, 0x00000000)
T0DC4 000:845.537 - 0.010ms returns 0x00
T0DC4 000:845.545 JLINK_WriteReg(R8, 0x00000000)
T0DC4 000:845.552 - 0.010ms returns 0x00
T0DC4 000:845.560 JLINK_WriteReg(R9, 0x20000160)
T0DC4 000:845.566 - 0.010ms returns 0x00
T0DC4 000:845.575 JLINK_WriteReg(R10, 0x00000000)
T0DC4 000:845.581 - 0.010ms returns 0x00
T0DC4 000:845.589 JLINK_WriteReg(R11, 0x00000000)
T0DC4 000:845.596 - 0.010ms returns 0x00
T0DC4 000:845.604 JLINK_WriteReg(R12, 0x00000000)
T0DC4 000:845.611 - 0.010ms returns 0x00
T0DC4 000:845.619 JLINK_WriteReg(R13 (SP), 0x20001000)
T0DC4 000:845.627 - 0.010ms returns 0x00
T0DC4 000:845.635 JLINK_WriteReg(R14, 0x20000001)
T0DC4 000:845.642 - 0.010ms returns 0x00
T0DC4 000:845.650 JLINK_WriteReg(R15 (PC), 0x200000F4)
T0DC4 000:845.657 - 0.010ms returns 0x00
T0DC4 000:845.665 JLINK_WriteReg(XPSR, 0x01000000)
T0DC4 000:845.672 - 0.010ms returns 0x00
T0DC4 000:845.680 JLINK_WriteReg(MSP, 0x20001000)
T0DC4 000:845.729 - 0.054ms returns 0x00
T0DC4 000:845.740 JLINK_WriteReg(PSP, 0x20001000)
T0DC4 000:845.747 - 0.010ms returns 0x00
T0DC4 000:845.755 JLINK_WriteReg(CFBP, 0x00000000)
T0DC4 000:845.762 - 0.009ms returns 0x00
T0DC4 000:845.770   JLINK_SetBPEx(Addr = 0x20000000, Type = 0xFFFFFFF2)
T0DC4 000:845.781 - 0.014ms returns 0x00000007
T0DC4 000:845.789 JLINK_Go()
T0DC4 000:845.802   CPU_ReadMem(4 bytes @ 0xE0001000)
T0DC4 000:847.436 - 1.654ms
T0DC4 000:847.451 JLINK_IsHalted()
T0DC4 000:847.791 - 0.347ms returns FALSE
T0DC4 000:849.216 JLINK_IsHalted()
T0DC4 000:849.458 - 0.251ms returns FALSE
T0DC4 000:851.204 JLINK_IsHalted()
T0DC4 000:851.499 - 0.302ms returns FALSE
T0DC4 000:853.250 JLINK_IsHalted()
T0DC4 000:853.556 - 0.314ms returns FALSE
T0DC4 000:855.194 JLINK_IsHalted()
T0DC4 000:855.453 - 0.266ms returns FALSE
T0DC4 000:857.271 JLINK_IsHalted()
T0DC4 000:857.508 - 0.244ms returns FALSE
T0DC4 000:859.185 JLINK_IsHalted()
T0DC4 000:859.464 - 0.285ms returns FALSE
T0DC4 000:861.184 JLINK_IsHalted()
T0DC4 000:861.450 - 0.273ms returns FALSE
T0DC4 000:863.175 JLINK_IsHalted()
T0DC4 000:863.464 - 0.296ms returns FALSE
T0DC4 000:865.170 JLINK_IsHalted()
T0DC4 000:865.458 - 0.295ms returns FALSE
T0DC4 000:867.164 JLINK_IsHalted()
T0DC4 000:867.449 - 0.291ms returns FALSE
T0DC4 000:869.196 JLINK_IsHalted()
T0DC4 000:869.429 - 0.241ms returns FALSE
T0DC4 000:871.242 JLINK_IsHalted()
T0DC4 000:871.510 - 0.275ms returns FALSE
T0DC4 000:873.227 JLINK_IsHalted()
T0DC4 000:873.530 - 0.311ms returns FALSE
T0DC4 000:875.183 JLINK_IsHalted()
T0DC4 000:875.526 - 0.351ms returns FALSE
T0DC4 000:877.199 JLINK_IsHalted()
T0DC4 000:877.505 - 0.313ms returns FALSE
T0DC4 000:879.193 JLINK_IsHalted()
T0DC4 000:880.554   CPU_ReadMem(2 bytes @ 0x20000000)
T0DC4 000:880.878 - 1.692ms returns TRUE
T0DC4 000:880.894 JLINK_ReadReg(R15 (PC))
T0DC4 000:880.905 - 0.014ms returns 0x20000000
T0DC4 000:880.914 JLINK_ClrBPEx(BPHandle = 0x00000007)
T0DC4 000:880.922 - 0.010ms returns 0x00
T0DC4 000:880.930 JLINK_ReadReg(R0)
T0DC4 000:880.937 - 0.010ms returns 0x00000000
T0DC4 000:881.425 JLINK_WriteMem(0x20000164, 0x029C Bytes, ...)
T0DC4 000:881.436   Data:  E8 D2 AA D4 D9 B4 CE D4 CB D0 D0 A1 B0 46 61 74 ...
T0DC4 000:881.453   CPU_WriteMem(668 bytes @ 0x20000164)
T0DC4 000:883.225 - 1.810ms returns 0x29C
T0DC4 000:883.243 JLINK_WriteMem(0x20000400, 0x0164 Bytes, ...)
T0DC4 000:883.251   Data:  09 F0 0F 08 5F EA C9 63 44 BF 8B 78 48 EA 03 08 ...
T0DC4 000:883.266   CPU_WriteMem(356 bytes @ 0x20000400)
T0DC4 000:884.434 - 1.199ms returns 0x164
T0DC4 000:884.454 JLINK_WriteReg(R0, 0x08000C00)
T0DC4 000:884.465 - 0.014ms returns 0x00
T0DC4 000:884.474 JLINK_WriteReg(R1, 0x00000400)
T0DC4 000:884.481 - 0.010ms returns 0x00
T0DC4 000:884.489 JLINK_WriteReg(R2, 0x20000164)
T0DC4 000:884.496 - 0.010ms returns 0x00
T0DC4 000:884.504 JLINK_WriteReg(R3, 0x00000000)
T0DC4 000:884.511 - 0.010ms returns 0x00
T0DC4 000:884.520 JLINK_WriteReg(R4, 0x00000000)
T0DC4 000:884.526 - 0.010ms returns 0x00
T0DC4 000:884.534 JLINK_WriteReg(R5, 0x00000000)
T0DC4 000:884.541 - 0.010ms returns 0x00
T0DC4 000:884.549 JLINK_WriteReg(R6, 0x00000000)
T0DC4 000:884.556 - 0.010ms returns 0x00
T0DC4 000:884.564 JLINK_WriteReg(R7, 0x00000000)
T0DC4 000:884.571 - 0.010ms returns 0x00
T0DC4 000:884.579 JLINK_WriteReg(R8, 0x00000000)
T0DC4 000:884.586 - 0.010ms returns 0x00
T0DC4 000:884.594 JLINK_WriteReg(R9, 0x20000160)
T0DC4 000:884.601 - 0.010ms returns 0x00
T0DC4 000:884.609 JLINK_WriteReg(R10, 0x00000000)
T0DC4 000:884.616 - 0.010ms returns 0x00
T0DC4 000:884.624 JLINK_WriteReg(R11, 0x00000000)
T0DC4 000:884.631 - 0.010ms returns 0x00
T0DC4 000:884.639 JLINK_WriteReg(R12, 0x00000000)
T0DC4 000:884.646 - 0.010ms returns 0x00
T0DC4 000:884.654 JLINK_WriteReg(R13 (SP), 0x20001000)
T0DC4 000:884.662 - 0.011ms returns 0x00
T0DC4 000:884.670 JLINK_WriteReg(R14, 0x20000001)
T0DC4 000:884.677 - 0.010ms returns 0x00
T0DC4 000:884.685 JLINK_WriteReg(R15 (PC), 0x200000F4)
T0DC4 000:884.692 - 0.012ms returns 0x00
T0DC4 000:884.704 JLINK_WriteReg(XPSR, 0x01000000)
T0DC4 000:884.711 - 0.010ms returns 0x00
T0DC4 000:884.719 JLINK_WriteReg(MSP, 0x20001000)
T0DC4 000:884.726 - 0.010ms returns 0x00
T0DC4 000:884.734 JLINK_WriteReg(PSP, 0x20001000)
T0DC4 000:884.740 - 0.010ms returns 0x00
T0DC4 000:884.748 JLINK_WriteReg(CFBP, 0x00000000)
T0DC4 000:884.755 - 0.010ms returns 0x00
T0DC4 000:884.764   JLINK_SetBPEx(Addr = 0x20000000, Type = 0xFFFFFFF2)
T0DC4 000:884.774 - 0.014ms returns 0x00000008
T0DC4 000:884.783 JLINK_Go()
T0DC4 000:884.796   CPU_ReadMem(4 bytes @ 0xE0001000)
T0DC4 000:886.523 - 1.749ms
T0DC4 000:886.540 JLINK_IsHalted()
T0DC4 000:886.835 - 0.302ms returns FALSE
T0DC4 000:888.169 JLINK_IsHalted()
T0DC4 000:888.450 - 0.290ms returns FALSE
T0DC4 000:890.212 JLINK_IsHalted()
T0DC4 000:890.533 - 0.329ms returns FALSE
T0DC4 000:892.113 JLINK_IsHalted()
T0DC4 000:892.429 - 0.324ms returns FALSE
T0DC4 000:894.133 JLINK_IsHalted()
T0DC4 000:894.428 - 0.303ms returns FALSE
T0DC4 000:896.128 JLINK_IsHalted()
T0DC4 000:896.429 - 0.309ms returns FALSE
T0DC4 000:898.132 JLINK_IsHalted()
T0DC4 000:898.430 - 0.307ms returns FALSE
T0DC4 000:900.149 JLINK_IsHalted()
T0DC4 000:900.458 - 0.318ms returns FALSE
T0DC4 000:902.124 JLINK_IsHalted()
T0DC4 000:902.423 - 0.307ms returns FALSE
T0DC4 000:904.183 JLINK_IsHalted()
T0DC4 000:904.482 - 0.307ms returns FALSE
T0DC4 000:906.178 JLINK_IsHalted()
T0DC4 000:906.475 - 0.305ms returns FALSE
T0DC4 000:908.163 JLINK_IsHalted()
T0DC4 000:908.465 - 0.309ms returns FALSE
T0DC4 000:910.203 JLINK_IsHalted()
T0DC4 000:910.492 - 0.298ms returns FALSE
T0DC4 000:912.201 JLINK_IsHalted()
T0DC4 000:912.503 - 0.310ms returns FALSE
T0DC4 000:914.193 JLINK_IsHalted()
T0DC4 000:914.466 - 0.282ms returns FALSE
T0DC4 000:916.188 JLINK_IsHalted()
T0DC4 000:916.483 - 0.304ms returns FALSE
T0DC4 000:918.226 JLINK_IsHalted()
T0DC4 000:919.520   CPU_ReadMem(2 bytes @ 0x20000000)
T0DC4 000:919.805 - 1.587ms returns TRUE
T0DC4 000:919.822 JLINK_ReadReg(R15 (PC))
T0DC4 000:919.834 - 0.015ms returns 0x20000000
T0DC4 000:919.843 JLINK_ClrBPEx(BPHandle = 0x00000008)
T0DC4 000:919.851 - 0.011ms returns 0x00
T0DC4 000:919.860 JLINK_ReadReg(R0)
T0DC4 000:919.867 - 0.010ms returns 0x00000000
T0DC4 000:920.352 JLINK_WriteMem(0x20000164, 0x029C Bytes, ...)
T0DC4 000:920.363   Data:  1D F8 20 46 14 21 00 F0 A3 F8 AD F8 06 00 20 46 ...
T0DC4 000:920.380   CPU_WriteMem(668 bytes @ 0x20000164)
T0DC4 000:922.143 - 1.800ms returns 0x29C
T0DC4 000:922.160 JLINK_WriteMem(0x20000400, 0x0164 Bytes, ...)
T0DC4 000:922.168   Data:  41 46 FF F7 8F FE 28 B9 38 88 41 1E 00 28 39 80 ...
T0DC4 000:922.184   CPU_WriteMem(356 bytes @ 0x20000400)
T0DC4 000:923.302 - 1.150ms returns 0x164
T0DC4 000:923.322 JLINK_WriteReg(R0, 0x08001000)
T0DC4 000:923.333 - 0.014ms returns 0x00
T0DC4 000:923.342 JLINK_WriteReg(R1, 0x00000400)
T0DC4 000:923.349 - 0.010ms returns 0x00
T0DC4 000:923.357 JLINK_WriteReg(R2, 0x20000164)
T0DC4 000:923.364 - 0.010ms returns 0x00
T0DC4 000:923.373 JLINK_WriteReg(R3, 0x00000000)
T0DC4 000:923.379 - 0.010ms returns 0x00
T0DC4 000:923.388 JLINK_WriteReg(R4, 0x00000000)
T0DC4 000:923.395 - 0.010ms returns 0x00
T0DC4 000:923.403 JLINK_WriteReg(R5, 0x00000000)
T0DC4 000:923.410 - 0.010ms returns 0x00
T0DC4 000:923.418 JLINK_WriteReg(R6, 0x00000000)
T0DC4 000:923.424 - 0.010ms returns 0x00
T0DC4 000:923.433 JLINK_WriteReg(R7, 0x00000000)
T0DC4 000:923.439 - 0.010ms returns 0x00
T0DC4 000:923.447 JLINK_WriteReg(R8, 0x00000000)
T0DC4 000:923.454 - 0.010ms returns 0x00
T0DC4 000:923.462 JLINK_WriteReg(R9, 0x20000160)
T0DC4 000:923.470 - 0.010ms returns 0x00
T0DC4 000:923.478 JLINK_WriteReg(R10, 0x00000000)
T0DC4 000:923.485 - 0.010ms returns 0x00
T0DC4 000:923.493 JLINK_WriteReg(R11, 0x00000000)
T0DC4 000:923.499 - 0.010ms returns 0x00
T0DC4 000:923.507 JLINK_WriteReg(R12, 0x00000000)
T0DC4 000:923.514 - 0.010ms returns 0x00
T0DC4 000:923.522 JLINK_WriteReg(R13 (SP), 0x20001000)
T0DC4 000:923.530 - 0.010ms returns 0x00
T0DC4 000:923.538 JLINK_WriteReg(R14, 0x20000001)
T0DC4 000:923.549 - 0.014ms returns 0x00
T0DC4 000:923.557 JLINK_WriteReg(R15 (PC), 0x200000F4)
T0DC4 000:923.564 - 0.010ms returns 0x00
T0DC4 000:923.573 JLINK_WriteReg(XPSR, 0x01000000)
T0DC4 000:923.580 - 0.010ms returns 0x00
T0DC4 000:923.588 JLINK_WriteReg(MSP, 0x20001000)
T0DC4 000:923.595 - 0.010ms returns 0x00
T0DC4 000:923.603 JLINK_WriteReg(PSP, 0x20001000)
T0DC4 000:923.610 - 0.010ms returns 0x00
T0DC4 000:923.618 JLINK_WriteReg(CFBP, 0x00000000)
T0DC4 000:923.625 - 0.010ms returns 0x00
T0DC4 000:923.634   JLINK_SetBPEx(Addr = 0x20000000, Type = 0xFFFFFFF2)
T0DC4 000:923.644 - 0.014ms returns 0x00000009
T0DC4 000:923.652 JLINK_Go()
T0DC4 000:923.666   CPU_ReadMem(4 bytes @ 0xE0001000)
T0DC4 000:925.276 - 1.633ms
T0DC4 000:925.294 JLINK_IsHalted()
T0DC4 000:925.539 - 0.252ms returns FALSE
T0DC4 000:927.188 JLINK_IsHalted()
T0DC4 000:927.444 - 0.263ms returns FALSE
T0DC4 000:928.678 JLINK_IsHalted()
T0DC4 000:928.975 - 0.305ms returns FALSE
T0DC4 000:930.257 JLINK_IsHalted()
T0DC4 000:930.553 - 0.304ms returns FALSE
T0DC4 000:932.223 JLINK_IsHalted()
T0DC4 000:932.547 - 0.333ms returns FALSE
T0DC4 000:934.242 JLINK_IsHalted()
T0DC4 000:934.513 - 0.280ms returns FALSE
T0DC4 000:936.190 JLINK_IsHalted()
T0DC4 000:936.402 - 0.220ms returns FALSE
T0DC4 000:938.206 JLINK_IsHalted()
T0DC4 000:938.449 - 0.252ms returns FALSE
T0DC4 000:941.180 JLINK_IsHalted()
T0DC4 000:941.425 - 0.253ms returns FALSE
T0DC4 000:943.182 JLINK_IsHalted()
T0DC4 000:943.424 - 0.250ms returns FALSE
T0DC4 000:945.167 JLINK_IsHalted()
T0DC4 000:945.371 - 0.211ms returns FALSE
T0DC4 000:947.175 JLINK_IsHalted()
T0DC4 000:947.417 - 0.252ms returns FALSE
T0DC4 000:953.155 JLINK_IsHalted()
T0DC4 000:953.397 - 0.253ms returns FALSE
T0DC4 000:955.146 JLINK_IsHalted()
T0DC4 000:955.372 - 0.236ms returns FALSE
T0DC4 000:957.147 JLINK_IsHalted()
T0DC4 000:958.339   CPU_ReadMem(2 bytes @ 0x20000000)
T0DC4 000:958.624 - 1.487ms returns TRUE
T0DC4 000:958.647 JLINK_ReadReg(R15 (PC))
T0DC4 000:958.668 - 0.025ms returns 0x20000000
T0DC4 000:958.680 JLINK_ClrBPEx(BPHandle = 0x00000009)
T0DC4 000:958.690 - 0.014ms returns 0x00
T0DC4 000:958.702 JLINK_ReadReg(R0)
T0DC4 000:958.711 - 0.014ms returns 0x00000000
T0DC4 000:959.387 JLINK_WriteMem(0x20000164, 0x029C Bytes, ...)
T0DC4 000:959.405   Data:  08 B1 43 A0 10 E0 30 46 FF F7 B8 FF 00 F0 58 F9 ...
T0DC4 000:959.432   CPU_WriteMem(668 bytes @ 0x20000164)
T0DC4 000:961.130 - 1.758ms returns 0x29C
T0DC4 000:961.158 JLINK_WriteMem(0x20000400, 0x0164 Bytes, ...)
T0DC4 000:961.169   Data:  00 38 01 40 49 32 43 20 B5 C8 B4 FD B3 AC CA B1 ...
T0DC4 000:961.199   CPU_WriteMem(356 bytes @ 0x20000400)
T0DC4 000:962.291 - 1.146ms returns 0x164
T0DC4 000:962.321 JLINK_WriteReg(R0, 0x08001400)
T0DC4 000:962.337 - 0.020ms returns 0x00
T0DC4 000:962.349 JLINK_WriteReg(R1, 0x00000400)
T0DC4 000:962.358 - 0.014ms returns 0x00
T0DC4 000:962.369 JLINK_WriteReg(R2, 0x20000164)
T0DC4 000:962.379 - 0.014ms returns 0x00
T0DC4 000:962.391 JLINK_WriteReg(R3, 0x00000000)
T0DC4 000:962.400 - 0.014ms returns 0x00
T0DC4 000:962.411 JLINK_WriteReg(R4, 0x00000000)
T0DC4 000:962.421 - 0.014ms returns 0x00
T0DC4 000:962.432 JLINK_WriteReg(R5, 0x00000000)
T0DC4 000:962.442 - 0.014ms returns 0x00
T0DC4 000:962.453 JLINK_WriteReg(R6, 0x00000000)
T0DC4 000:962.464 - 0.014ms returns 0x00
T0DC4 000:962.475 JLINK_WriteReg(R7, 0x00000000)
T0DC4 000:962.485 - 0.014ms returns 0x00
T0DC4 000:962.496 JLINK_WriteReg(R8, 0x00000000)
T0DC4 000:962.508 - 0.017ms returns 0x00
T0DC4 000:962.521 JLINK_WriteReg(R9, 0x20000160)
T0DC4 000:962.531 - 0.015ms returns 0x00
T0DC4 000:962.542 JLINK_WriteReg(R10, 0x00000000)
T0DC4 000:962.552 - 0.014ms returns 0x00
T0DC4 000:962.563 JLINK_WriteReg(R11, 0x00000000)
T0DC4 000:962.573 - 0.014ms returns 0x00
T0DC4 000:962.585 JLINK_WriteReg(R12, 0x00000000)
T0DC4 000:962.594 - 0.013ms returns 0x00
T0DC4 000:962.604 JLINK_WriteReg(R13 (SP), 0x20001000)
T0DC4 000:962.615 - 0.015ms returns 0x00
T0DC4 000:962.632 JLINK_WriteReg(R14, 0x20000001)
T0DC4 000:962.645 - 0.017ms returns 0x00
T0DC4 000:962.657 JLINK_WriteReg(R15 (PC), 0x200000F4)
T0DC4 000:962.667 - 0.015ms returns 0x00
T0DC4 000:962.678 JLINK_WriteReg(XPSR, 0x01000000)
T0DC4 000:962.688 - 0.014ms returns 0x00
T0DC4 000:962.699 JLINK_WriteReg(MSP, 0x20001000)
T0DC4 000:962.709 - 0.014ms returns 0x00
T0DC4 000:962.720 JLINK_WriteReg(PSP, 0x20001000)
T0DC4 000:962.730 - 0.014ms returns 0x00
T0DC4 000:962.741 JLINK_WriteReg(CFBP, 0x00000000)
T0DC4 000:962.751 - 0.014ms returns 0x00
T0DC4 000:962.763   JLINK_SetBPEx(Addr = 0x20000000, Type = 0xFFFFFFF2)
T0DC4 000:962.778 - 0.019ms returns 0x0000000A
T0DC4 000:962.789 JLINK_Go()
T0DC4 000:962.810   CPU_ReadMem(4 bytes @ 0xE0001000)
T0DC4 000:964.281 - 1.504ms
T0DC4 000:964.304 JLINK_IsHalted()
T0DC4 000:964.501 - 0.205ms returns FALSE
T0DC4 000:966.115 JLINK_IsHalted()
T0DC4 000:966.334 - 0.228ms returns FALSE
T0DC4 000:968.147 JLINK_IsHalted()
T0DC4 000:968.379 - 0.244ms returns FALSE
T0DC4 000:970.107 JLINK_IsHalted()
T0DC4 000:970.342 - 0.246ms returns FALSE
T0DC4 000:972.133 JLINK_IsHalted()
T0DC4 000:972.454 - 0.330ms returns FALSE
T0DC4 000:974.126 JLINK_IsHalted()
T0DC4 000:974.418 - 0.301ms returns FALSE
T0DC4 000:976.095 JLINK_IsHalted()
T0DC4 000:976.353 - 0.267ms returns FALSE
T0DC4 000:978.131 JLINK_IsHalted()
T0DC4 000:978.420 - 0.299ms returns FALSE
T0DC4 000:980.120 JLINK_IsHalted()
T0DC4 000:980.370 - 0.258ms returns FALSE
T0DC4 000:982.109 JLINK_IsHalted()
T0DC4 000:982.406 - 0.306ms returns FALSE
T0DC4 000:984.104 JLINK_IsHalted()
T0DC4 000:984.365 - 0.271ms returns FALSE
T0DC4 000:986.105 JLINK_IsHalted()
T0DC4 000:986.383 - 0.286ms returns FALSE
T0DC4 000:988.090 JLINK_IsHalted()
T0DC4 000:988.332 - 0.250ms returns FALSE
T0DC4 000:990.184 JLINK_IsHalted()
T0DC4 000:990.453 - 0.277ms returns FALSE
T0DC4 000:992.135 JLINK_IsHalted()
T0DC4 000:992.390 - 0.262ms returns FALSE
T0DC4 000:994.172 JLINK_IsHalted()
T0DC4 000:994.441 - 0.276ms returns FALSE
T0DC4 000:996.138 JLINK_IsHalted()
T0DC4 000:997.390   CPU_ReadMem(2 bytes @ 0x20000000)
T0DC4 000:997.692 - 1.561ms returns TRUE
T0DC4 000:997.709 JLINK_ReadReg(R15 (PC))
T0DC4 000:997.721 - 0.015ms returns 0x20000000
T0DC4 000:997.730 JLINK_ClrBPEx(BPHandle = 0x0000000A)
T0DC4 000:997.738 - 0.010ms returns 0x00
T0DC4 000:997.746 JLINK_ReadReg(R0)
T0DC4 000:997.753 - 0.010ms returns 0x00000000
T0DC4 000:998.285 JLINK_WriteMem(0x20000164, 0x029C Bytes, ...)
T0DC4 000:998.297   Data:  C3 FA 07 F0 0F 00 0F 28 02 D1 40 46 05 F0 BC FA ...
T0DC4 000:998.315   CPU_WriteMem(668 bytes @ 0x20000164)
T0DC4 001:000.083 - 1.817ms returns 0x29C
T0DC4 001:000.116 JLINK_WriteMem(0x20000400, 0x0164 Bytes, ...)
T0DC4 001:000.127   Data:  1B E0 B9 F8 00 20 10 30 90 42 88 BF 10 35 A9 B2 ...
T0DC4 001:000.154   CPU_WriteMem(356 bytes @ 0x20000400)
T0DC4 001:001.257 - 1.152ms returns 0x164
T0DC4 001:001.284 JLINK_WriteReg(R0, 0x08001800)
T0DC4 001:001.297 - 0.018ms returns 0x00
T0DC4 001:001.306 JLINK_WriteReg(R1, 0x00000400)
T0DC4 001:001.313 - 0.010ms returns 0x00
T0DC4 001:001.322 JLINK_WriteReg(R2, 0x20000164)
T0DC4 001:001.329 - 0.010ms returns 0x00
T0DC4 001:001.337 JLINK_WriteReg(R3, 0x00000000)
T0DC4 001:001.344 - 0.010ms returns 0x00
T0DC4 001:001.352 JLINK_WriteReg(R4, 0x00000000)
T0DC4 001:001.359 - 0.010ms returns 0x00
T0DC4 001:001.368 JLINK_WriteReg(R5, 0x00000000)
T0DC4 001:001.375 - 0.010ms returns 0x00
T0DC4 001:001.383 JLINK_WriteReg(R6, 0x00000000)
T0DC4 001:001.390 - 0.010ms returns 0x00
T0DC4 001:001.398 JLINK_WriteReg(R7, 0x00000000)
T0DC4 001:001.405 - 0.010ms returns 0x00
T0DC4 001:001.413 JLINK_WriteReg(R8, 0x00000000)
T0DC4 001:001.420 - 0.010ms returns 0x00
T0DC4 001:001.428 JLINK_WriteReg(R9, 0x20000160)
T0DC4 001:001.435 - 0.010ms returns 0x00
T0DC4 001:001.443 JLINK_WriteReg(R10, 0x00000000)
T0DC4 001:001.450 - 0.010ms returns 0x00
T0DC4 001:001.458 JLINK_WriteReg(R11, 0x00000000)
T0DC4 001:001.465 - 0.010ms returns 0x00
T0DC4 001:001.474 JLINK_WriteReg(R12, 0x00000000)
T0DC4 001:001.483 - 0.014ms returns 0x00
T0DC4 001:001.493 JLINK_WriteReg(R13 (SP), 0x20001000)
T0DC4 001:001.502 - 0.011ms returns 0x00
T0DC4 001:001.510 JLINK_WriteReg(R14, 0x20000001)
T0DC4 001:001.517 - 0.010ms returns 0x00
T0DC4 001:001.525 JLINK_WriteReg(R15 (PC), 0x200000F4)
T0DC4 001:001.533 - 0.010ms returns 0x00
T0DC4 001:001.541 JLINK_WriteReg(XPSR, 0x01000000)
T0DC4 001:001.548 - 0.010ms returns 0x00
T0DC4 001:001.556 JLINK_WriteReg(MSP, 0x20001000)
T0DC4 001:001.563 - 0.010ms returns 0x00
T0DC4 001:001.571 JLINK_WriteReg(PSP, 0x20001000)
T0DC4 001:001.578 - 0.010ms returns 0x00
T0DC4 001:001.587 JLINK_WriteReg(CFBP, 0x00000000)
T0DC4 001:001.594 - 0.010ms returns 0x00
T0DC4 001:001.603   JLINK_SetBPEx(Addr = 0x20000000, Type = 0xFFFFFFF2)
T0DC4 001:001.613 - 0.014ms returns 0x0000000B
T0DC4 001:001.622 JLINK_Go()
T0DC4 001:001.638   CPU_ReadMem(4 bytes @ 0xE0001000)
T0DC4 001:003.240 - 1.629ms
T0DC4 001:003.260 JLINK_IsHalted()
T0DC4 001:003.531 - 0.278ms returns FALSE
T0DC4 001:005.123 JLINK_IsHalted()
T0DC4 001:005.392 - 0.277ms returns FALSE
T0DC4 001:007.114 JLINK_IsHalted()
T0DC4 001:007.361 - 0.254ms returns FALSE
T0DC4 001:008.616 JLINK_IsHalted()
T0DC4 001:008.858 - 0.250ms returns FALSE
T0DC4 001:010.211 JLINK_IsHalted()
T0DC4 001:010.506 - 0.304ms returns FALSE
T0DC4 001:012.216 JLINK_IsHalted()
T0DC4 001:012.479 - 0.272ms returns FALSE
T0DC4 001:014.172 JLINK_IsHalted()
T0DC4 001:014.451 - 0.287ms returns FALSE
T0DC4 001:016.179 JLINK_IsHalted()
T0DC4 001:016.451 - 0.279ms returns FALSE
T0DC4 001:018.171 JLINK_IsHalted()
T0DC4 001:018.416 - 0.253ms returns FALSE
T0DC4 001:020.170 JLINK_IsHalted()
T0DC4 001:020.477 - 0.315ms returns FALSE
T0DC4 001:022.181 JLINK_IsHalted()
T0DC4 001:022.450 - 0.278ms returns FALSE
T0DC4 001:024.184 JLINK_IsHalted()
T0DC4 001:024.416 - 0.240ms returns FALSE
